T33A4 000:070.796   SEGGER J-Link V6.86 Log File
T33A4 000:070.881   DLL Compiled: Sep 24 2020 17:31:31
T33A4 000:070.885   Logging started @ 2022-12-04 08:54
T33A4 000:070.888 - 70.890ms
T33A4 000:070.894 JLINK_SetWarnOutHandler(...)
T33A4 000:070.899 - 0.005ms
T33A4 000:070.903 JLINK_OpenEx(...)
T33A4 000:071.746   Firmware: J-Link ARM-OB STM32 compiled Aug 22 2012 19:52:04
T33A4 000:073.121   Hardware: V7.00
T33A4 000:073.129   S/N: 20090928
T33A4 000:073.134   OEM: SEGGER
T33A4 000:073.139   Feature(s): RDI,FlashDL,FlashBP,JFlash,GDBFull
T33A4 000:073.793   TELNET listener socket opened on port 19021
T33A4 000:073.845   WEBSRV Starting webserver
T33A4 000:074.034   WEBSRV Webserver running on local port 19080
T33A4 000:074.043 - 3.142ms returns "O.K."
T33A4 000:074.056 JLINK_GetEmuCaps()
T33A4 000:074.061 - 0.007ms returns 0x88EA5833
T33A4 000:074.071 JLINK_TIF_GetAvailable(...)
T33A4 000:074.179 - 0.111ms
T33A4 000:074.188 JLINK_SetErrorOutHandler(...)
T33A4 000:074.191 - 0.004ms
T33A4 000:074.200 JLINK_ExecCommand("ProjectFile = "E:\ÐÇ³½´óº£\Open\Hand-energy\Software\AT32F415RC-SDK-V2.0\User\JLinkSettings.ini"", ...). 
T33A4 000:079.177   XML file found at: D:\MDK\ARM\Segger\JLinkDevices.xml
T33A4 000:079.970   D:\MDK\ARM\Segger\JLinkDevices.xml evaluated successfully.
T33A4 000:113.862   Device "AC33M6128L" selected.
T33A4 000:114.252 - 40.056ms returns 0x00
T33A4 000:126.636 JLINK_ExecCommand("Device = -AT32F415RCT7", ...). 
T33A4 000:138.247   Device "AC33M6128L" selected.
T33A4 000:138.593 - 11.951ms returns 0x00
T33A4 000:138.607 JLINK_GetHardwareVersion()
T33A4 000:138.611 - 0.005ms returns 70000
T33A4 000:138.621 JLINK_GetDLLVersion()
T33A4 000:138.624 - 0.004ms returns 68600
T33A4 000:138.628 JLINK_GetOEMString(...)
T33A4 000:138.632 JLINK_GetFirmwareString(...)
T33A4 000:138.636 - 0.005ms
T33A4 000:173.804 JLINK_GetDLLVersion()
T33A4 000:173.819 - 0.015ms returns 68600
T33A4 000:173.824 JLINK_GetCompileDateTime()
T33A4 000:173.827 - 0.004ms
T33A4 000:187.510 JLINK_GetFirmwareString(...)
T33A4 000:187.522 - 0.013ms
T33A4 000:197.411 JLINK_GetHardwareVersion()
T33A4 000:197.422 - 0.012ms returns 70000
T33A4 000:210.922 JLINK_GetSN()
T33A4 000:210.935 - 0.015ms returns 20090928
T33A4 000:220.416 JLINK_GetOEMString(...)
T33A4 000:238.382 JLINK_TIF_Select(JLINKARM_TIF_SWD)
T33A4 000:238.691 - 0.314ms returns 0x00
T33A4 000:238.701 JLINK_HasError()
T33A4 000:238.711 JLINK_SetSpeed(5000)
T33A4 000:238.763 - 0.057ms
T33A4 000:238.774 JLINK_GetId()
T33A4 000:250.236   Found SW-DP with ID 0x2BA01477
T33A4 000:252.272   Old FW that does not support reading DPIDR via DAP jobs
T33A4 000:263.970   Unknown DP version. Assuming DPv0
T33A4 000:272.089   Scanning AP map to find all available APs
T33A4 000:283.596   AP[1]: Stopped AP scan as end of AP map has been reached
T33A4 000:292.851   AP[0]: AHB-AP (IDR: 0x24770011)
T33A4 000:300.995   Iterating through AP map to find AHB-AP to use
T33A4 000:315.212   AP[0]: Core found
T33A4 000:321.345   AP[0]: AHB-AP ROM base: 0xE00FF000
T33A4 000:329.307   CPUID register: 0x410FC241. Implementer code: 0x41 (ARM)
T33A4 000:336.324   Found Cortex-M4 r0p1, Little endian.
T33A4 000:438.676   Identified core does not match configuration. (Found: Cortex-M4, Configured: Cortex-M3)
T33A4 000:438.969   -- Max. mem block: 0x00002C18
T33A4 000:438.983   CPU_ReadMem(4 bytes @ 0xE000EDF0)
T33A4 000:439.533   CPU_WriteMem(4 bytes @ 0xE000EDF0)
T33A4 000:439.997   CPU_ReadMem(4 bytes @ 0xE0002000)
T33A4 000:441.864   FPUnit: 6 code (BP) slots and 2 literal slots
T33A4 000:441.877   CPU_ReadMem(4 bytes @ 0xE000EDFC)
T33A4 000:442.304   CPU_WriteMem(4 bytes @ 0xE000EDFC)
T33A4 000:442.702   CPU_ReadMem(4 bytes @ 0xE0001000)
T33A4 000:443.073   CPU_WriteMem(4 bytes @ 0xE0001000)
T33A4 000:443.461   CPU_ReadMem(4 bytes @ 0xE000ED88)
T33A4 000:443.826   CPU_WriteMem(4 bytes @ 0xE000ED88)
T33A4 000:444.216   CPU_ReadMem(4 bytes @ 0xE000ED88)
T33A4 000:444.592   CPU_WriteMem(4 bytes @ 0xE000ED88)
T33A4 000:446.941   CoreSight components:
T33A4 000:448.360   ROMTbl[0] @ E00FF000
T33A4 000:448.369   CPU_ReadMem(64 bytes @ 0xE00FF000)
T33A4 000:449.356   CPU_ReadMem(32 bytes @ 0xE000EFE0)
T33A4 000:451.434   ROMTbl[0][0]: E000E000, CID: B105E00D, PID: 000BB000 SCS
T33A4 000:451.444   CPU_ReadMem(32 bytes @ 0xE0001FE0)
T33A4 000:453.471   ROMTbl[0][1]: E0001000, CID: B105E00D, PID: 003BB002 DWT
T33A4 000:453.481   CPU_ReadMem(32 bytes @ 0xE0002FE0)
T33A4 000:455.481   ROMTbl[0][2]: E0002000, CID: B105E00D, PID: 002BB003 FPB
T33A4 000:455.491   CPU_ReadMem(32 bytes @ 0xE0000FE0)
T33A4 000:457.491   ROMTbl[0][3]: E0000000, CID: B105E00D, PID: 003BB001 ITM
T33A4 000:457.501   CPU_ReadMem(32 bytes @ 0xE0040FE0)
T33A4 000:459.841   ROMTbl[0][4]: E0040000, CID: B105900D, PID: 000BB9A1 TPIU
T33A4 000:459.852   CPU_ReadMem(32 bytes @ 0xE0041FE0)
T33A4 000:462.264   ROMTbl[0][5]: E0041000, CID: B105900D, PID: 000BB925 ETM
T33A4 000:462.567 - 223.797ms returns 0x2BA01477
T33A4 000:462.581 JLINK_GetDLLVersion()
T33A4 000:462.584 - 0.004ms returns 68600
T33A4 000:462.616 JLINK_CORE_GetFound()
T33A4 000:462.620 - 0.005ms returns 0xE0000FF
T33A4 000:462.624 JLINK_GetDebugInfo(0x100 = JLINKARM_ROM_TABLE_ADDR_INDEX)
T33A4 000:462.628   Value=0xE00FF000
T33A4 000:462.633 - 0.009ms returns 0
T33A4 000:464.030 JLINK_GetDebugInfo(0x100 = JLINKARM_ROM_TABLE_ADDR_INDEX)
T33A4 000:464.038   Value=0xE00FF000
T33A4 000:464.043 - 0.014ms returns 0
T33A4 000:464.047 JLINK_GetDebugInfo(0x101 = JLINKARM_DEBUG_INFO_ETM_ADDR_INDEX)
T33A4 000:464.050   Value=0xE0041000
T33A4 000:464.055 - 0.009ms returns 0
T33A4 000:464.062 JLINK_ReadMemEx(0xE0041FD0, 0x20 Bytes, Flags = 0x02000004)
T33A4 000:464.079   CPU_ReadMem(32 bytes @ 0xE0041FD0)
T33A4 000:464.730   Data:  04 00 00 00 00 00 00 00 00 00 00 00 00 00 00 00 ...
T33A4 000:464.736 - 0.675ms returns 32 (0x20)
T33A4 000:464.741 JLINK_GetDebugInfo(0x102 = JLINKARM_DEBUG_INFO_MTB_ADDR_INDEX)
T33A4 000:464.745   Value=0x00000000
T33A4 000:464.749 - 0.009ms returns 0
T33A4 000:464.753 JLINK_GetDebugInfo(0x103 = JLINKARM_DEBUG_INFO_TPIU_ADDR_INDEX)
T33A4 000:464.756   Value=0xE0040000
T33A4 000:464.760 - 0.009ms returns 0
T33A4 000:464.764 JLINK_GetDebugInfo(0x104 = JLINKARM_DEBUG_INFO_ITM_ADDR_INDEX)
T33A4 000:464.767   Value=0xE0000000
T33A4 000:464.771 - 0.009ms returns 0
T33A4 000:464.775 JLINK_GetDebugInfo(0x105 = JLINKARM_DEBUG_INFO_DWT_ADDR_INDEX)
T33A4 000:464.778   Value=0xE0001000
T33A4 000:464.782 - 0.008ms returns 0
T33A4 000:464.786 JLINK_GetDebugInfo(0x106 = JLINKARM_DEBUG_INFO_FPB_ADDR_INDEX)
T33A4 000:464.789   Value=0xE0002000
T33A4 000:464.793 - 0.008ms returns 0
T33A4 000:464.797 JLINK_GetDebugInfo(0x107 = JLINKARM_DEBUG_INFO_NVIC_ADDR_INDEX)
T33A4 000:464.800   Value=0xE000E000
T33A4 000:464.804 - 0.008ms returns 0
T33A4 000:464.808 JLINK_GetDebugInfo(0x10C = JLINKARM_DEBUG_INFO_DBG_ADDR_INDEX)
T33A4 000:464.811   Value=0xE000EDF0
T33A4 000:464.815 - 0.008ms returns 0
T33A4 000:464.819 JLINK_GetDebugInfo(0x01 = Unknown)
T33A4 000:464.822   Value=0x00000001
T33A4 000:464.826 - 0.009ms returns 0
T33A4 000:464.830 JLINK_ReadMemU32(0xE000ED00, 0x1 Items)
T33A4 000:464.835   CPU_ReadMem(4 bytes @ 0xE000ED00)
T33A4 000:465.198   Data:  41 C2 0F 41
T33A4 000:465.204   Debug reg: CPUID
T33A4 000:465.209 - 0.380ms returns 1 (0x1)
T33A4 000:465.214 JLINK_GetDebugInfo(0x10F = JLINKARM_DEBUG_INFO_HAS_CORTEX_M_SECURITY_EXT_INDEX)
T33A4 000:465.217   Value=0x00000000
T33A4 000:465.221 - 0.009ms returns 0
T33A4 000:465.225 JLINK_HasError()
T33A4 000:465.230 JLINK_SetResetType(JLINKARM_CM3_RESET_TYPE_NORMAL)
T33A4 000:465.233 - 0.005ms returns JLINKARM_CM3_RESET_TYPE_NORMAL
T33A4 000:465.237 JLINK_Reset()
T33A4 000:465.247   CPU is running
T33A4 000:465.252   CPU_WriteMem(4 bytes @ 0xE000EDF0)
T33A4 000:465.642   CPU is running
T33A4 000:465.648   CPU_WriteMem(4 bytes @ 0xE000EDFC)
T33A4 000:467.499   Reset: Halt core after reset via DEMCR.VC_CORERESET.
T33A4 000:469.220   Reset: Reset device via AIRCR.SYSRESETREQ.
T33A4 000:469.229   CPU is running
T33A4 000:469.235   CPU_WriteMem(4 bytes @ 0xE000ED0C)
T33A4 000:522.244   CPU_ReadMem(4 bytes @ 0xE000EDF0)
T33A4 000:522.619   CPU_ReadMem(4 bytes @ 0xE000EDF0)
T33A4 000:522.994   CPU is running
T33A4 000:523.010   CPU_WriteMem(4 bytes @ 0xE000EDF0)
T33A4 000:523.426   CPU is running
T33A4 000:523.438   CPU_WriteMem(4 bytes @ 0xE000EDFC)
T33A4 000:529.496   CPU_ReadMem(4 bytes @ 0xE000EDF0)
T33A4 000:532.903   CPU_WriteMem(4 bytes @ 0xE0002000)
T33A4 000:533.308   CPU_ReadMem(4 bytes @ 0xE000EDFC)
T33A4 000:533.680   CPU_ReadMem(4 bytes @ 0xE0001000)
T33A4 000:534.050 - 68.816ms
T33A4 000:534.063 JLINK_Halt()
T33A4 000:534.068 - 0.006ms returns 0x00
T33A4 000:534.073 JLINK_ReadMemU32(0xE000EDF0, 0x1 Items)
T33A4 000:534.082   CPU_ReadMem(4 bytes @ 0xE000EDF0)
T33A4 000:534.450   Data:  03 00 03 00
T33A4 000:534.458   Debug reg: DHCSR
T33A4 000:534.463 - 0.391ms returns 1 (0x1)
T33A4 000:534.474 JLINK_WriteU32_64(0xE000EDF0, 0xA05F0003)
T33A4 000:534.480   Debug reg: DHCSR
T33A4 000:534.497   CPU_WriteMem(4 bytes @ 0xE000EDF0)
T33A4 000:534.970 - 0.499ms returns 0 (0x00000000)
T33A4 000:534.980 JLINK_WriteU32_64(0xE000EDFC, 0x01000000)
T33A4 000:534.984   Debug reg: DEMCR
T33A4 000:534.992   CPU_WriteMem(4 bytes @ 0xE000EDFC)
T33A4 000:535.383 - 0.407ms returns 0 (0x00000000)
T33A4 000:542.252 JLINK_GetHWStatus(...)
T33A4 000:542.378 - 0.129ms returns 0
T33A4 000:546.390 JLINK_GetNumBPUnits(Type = 0xFFFFFF00)
T33A4 000:546.398 - 0.010ms returns 0x06
T33A4 000:546.403 JLINK_GetNumBPUnits(Type = 0xF0)
T33A4 000:546.406 - 0.004ms returns 0x2000
T33A4 000:546.410 JLINK_GetNumWPUnits()
T33A4 000:546.413 - 0.004ms returns 4
T33A4 000:550.546 JLINK_GetSpeed()
T33A4 000:550.554 - 0.010ms returns 4000
T33A4 000:553.215 JLINK_ReadMemU32(0xE000E004, 0x1 Items)
T33A4 000:553.230   CPU_ReadMem(4 bytes @ 0xE000E004)
T33A4 000:553.613   Data:  02 00 00 00
T33A4 000:553.620 - 0.406ms returns 1 (0x1)
T33A4 000:553.625 JLINK_ReadMemU32(0xE000E004, 0x1 Items)
T33A4 000:553.631   CPU_ReadMem(4 bytes @ 0xE000E004)
T33A4 000:554.014   Data:  02 00 00 00
T33A4 000:554.024 - 0.401ms returns 1 (0x1)
T33A4 000:554.031 JLINK_WriteMemEx(0xE0001000, 0x0000001C Bytes, Flags = 0x02000004)
T33A4 000:554.036   Data:  01 00 00 00 00 00 00 00 00 00 00 00 00 00 00 00 ...
T33A4 000:554.226   CPU_WriteMem(28 bytes @ 0xE0001000)
T33A4 000:554.972 - 0.946ms returns 0x1C
T33A4 000:554.985 JLINK_Halt()
T33A4 000:554.988 - 0.005ms returns 0x00
T33A4 000:554.992 JLINK_IsHalted()
T33A4 000:554.996 - 0.005ms returns TRUE
T33A4 000:557.253 JLINK_WriteMem(0x20000000, 0x314 Bytes, ...)
T33A4 000:557.258   Data:  00 BE 0A E0 0D 78 2D 06 68 40 08 24 40 00 00 D3 ...
T33A4 000:557.425   CPU_WriteMem(788 bytes @ 0x20000000)
T33A4 000:566.977 - 9.730ms returns 0x314
T33A4 000:567.016 JLINK_HasError()
T33A4 000:567.023 JLINK_WriteReg(R0, 0x08000000)
T33A4 000:567.030 - 0.009ms returns 0
T33A4 000:567.035 JLINK_WriteReg(R1, 0x00B71B00)
T33A4 000:567.040 - 0.006ms returns 0
T33A4 000:567.044 JLINK_WriteReg(R2, 0x00000001)
T33A4 000:567.049 - 0.006ms returns 0
T33A4 000:567.054 JLINK_WriteReg(R3, 0x00000000)
T33A4 000:567.060 - 0.009ms returns 0
T33A4 000:567.065 JLINK_WriteReg(R4, 0x00000000)
T33A4 000:567.069 - 0.006ms returns 0
T33A4 000:567.074 JLINK_WriteReg(R5, 0x00000000)
T33A4 000:567.078 - 0.006ms returns 0
T33A4 000:567.083 JLINK_WriteReg(R6, 0x00000000)
T33A4 000:567.087 - 0.006ms returns 0
T33A4 000:567.092 JLINK_WriteReg(R7, 0x00000000)
T33A4 000:567.096 - 0.006ms returns 0
T33A4 000:567.101 JLINK_WriteReg(R8, 0x00000000)
T33A4 000:567.110 - 0.011ms returns 0
T33A4 000:567.115 JLINK_WriteReg(R9, 0x20000310)
T33A4 000:567.119 - 0.006ms returns 0
T33A4 000:567.124 JLINK_WriteReg(R10, 0x00000000)
T33A4 000:567.128 - 0.006ms returns 0
T33A4 000:567.132 JLINK_WriteReg(R11, 0x00000000)
T33A4 000:567.137 - 0.006ms returns 0
T33A4 000:567.141 JLINK_WriteReg(R12, 0x00000000)
T33A4 000:567.145 - 0.006ms returns 0
T33A4 000:567.150 JLINK_WriteReg(R13 (SP), 0x20001000)
T33A4 000:567.155 - 0.006ms returns 0
T33A4 000:567.163 JLINK_WriteReg(R14, 0x20000001)
T33A4 000:567.168 - 0.007ms returns 0
T33A4 000:567.173 JLINK_WriteReg(R15 (PC), 0x2000009A)
T33A4 000:567.179 - 0.008ms returns 0
T33A4 000:567.184 JLINK_WriteReg(XPSR, 0x01000000)
T33A4 000:567.188 - 0.006ms returns 0
T33A4 000:567.193 JLINK_WriteReg(MSP, 0x20001000)
T33A4 000:567.197 - 0.006ms returns 0
T33A4 000:567.201 JLINK_WriteReg(PSP, 0x20001000)
T33A4 000:567.206 - 0.006ms returns 0
T33A4 000:567.210 JLINK_WriteReg(CFBP, 0x00000000)
T33A4 000:567.214 - 0.006ms returns 0
T33A4 000:567.219 JLINK_SetBPEx(Addr = 0x20000000, Type = 0xFFFFFFF2)
T33A4 000:567.226   CPU_ReadMem(2 bytes @ 0x20000000)
T33A4 000:567.608 - 0.392ms returns 0x00000001
T33A4 000:567.614 JLINK_Go()
T33A4 000:567.620   CPU_WriteMem(2 bytes @ 0x20000000)
T33A4 000:568.017   CPU_ReadMem(4 bytes @ 0xE0001000)
T33A4 000:568.398   CPU_WriteMem(4 bytes @ 0xE0002008)
T33A4 000:568.407   CPU_WriteMem(4 bytes @ 0xE000200C)
T33A4 000:568.412   CPU_WriteMem(4 bytes @ 0xE0002010)
T33A4 000:568.417   CPU_WriteMem(4 bytes @ 0xE0002014)
T33A4 000:568.421   CPU_WriteMem(4 bytes @ 0xE0002018)
T33A4 000:568.426   CPU_WriteMem(4 bytes @ 0xE000201C)
T33A4 000:570.750   CPU_WriteMem(4 bytes @ 0xE0001004)
T33A4 000:574.033 - 6.425ms
T33A4 000:574.044 JLINK_IsHalted()
T33A4 000:574.400 - 0.361ms returns FALSE
T33A4 000:574.409 JLINK_HasError()
T33A4 000:585.070 JLINK_IsHalted()
T33A4 000:588.080   CPU_ReadMem(2 bytes @ 0x20000000)
T33A4 000:588.472 - 3.406ms returns TRUE
T33A4 000:588.481 JLINK_ReadReg(R15 (PC))
T33A4 000:588.488 - 0.009ms returns 0x20000000
T33A4 000:588.493 JLINK_ClrBPEx(BPHandle = 0x00000001)
T33A4 000:588.498 - 0.006ms returns 0x00
T33A4 000:588.503 JLINK_ReadReg(R0)
T33A4 000:588.507 - 0.006ms returns 0x00000000
T33A4 000:588.717 JLINK_HasError()
T33A4 000:588.726 JLINK_WriteReg(R0, 0x08000000)
T33A4 000:588.732 - 0.008ms returns 0
T33A4 000:588.737 JLINK_WriteReg(R1, 0x00B71B00)
T33A4 000:588.741 - 0.006ms returns 0
T33A4 000:588.746 JLINK_WriteReg(R2, 0x00000001)
T33A4 000:588.750 - 0.006ms returns 0
T33A4 000:588.755 JLINK_WriteReg(R3, 0x00000000)
T33A4 000:588.759 - 0.006ms returns 0
T33A4 000:588.764 JLINK_WriteReg(R4, 0x00000000)
T33A4 000:588.768 - 0.006ms returns 0
T33A4 000:588.772 JLINK_WriteReg(R5, 0x00000000)
T33A4 000:588.776 - 0.006ms returns 0
T33A4 000:588.781 JLINK_WriteReg(R6, 0x00000000)
T33A4 000:588.785 - 0.006ms returns 0
T33A4 000:588.790 JLINK_WriteReg(R7, 0x00000000)
T33A4 000:588.794 - 0.006ms returns 0
T33A4 000:588.798 JLINK_WriteReg(R8, 0x00000000)
T33A4 000:588.803 - 0.006ms returns 0
T33A4 000:588.807 JLINK_WriteReg(R9, 0x20000310)
T33A4 000:588.811 - 0.006ms returns 0
T33A4 000:588.816 JLINK_WriteReg(R10, 0x00000000)
T33A4 000:588.820 - 0.006ms returns 0
T33A4 000:588.825 JLINK_WriteReg(R11, 0x00000000)
T33A4 000:588.829 - 0.006ms returns 0
T33A4 000:588.833 JLINK_WriteReg(R12, 0x00000000)
T33A4 000:588.837 - 0.006ms returns 0
T33A4 000:588.842 JLINK_WriteReg(R13 (SP), 0x20001000)
T33A4 000:588.846 - 0.006ms returns 0
T33A4 000:588.851 JLINK_WriteReg(R14, 0x20000001)
T33A4 000:588.855 - 0.006ms returns 0
T33A4 000:588.860 JLINK_WriteReg(R15 (PC), 0x2000011A)
T33A4 000:588.864 - 0.006ms returns 0
T33A4 000:588.868 JLINK_WriteReg(XPSR, 0x01000000)
T33A4 000:588.873 - 0.006ms returns 0
T33A4 000:588.877 JLINK_WriteReg(MSP, 0x20001000)
T33A4 000:588.881 - 0.006ms returns 0
T33A4 000:588.886 JLINK_WriteReg(PSP, 0x20001000)
T33A4 000:588.890 - 0.006ms returns 0
T33A4 000:588.895 JLINK_WriteReg(CFBP, 0x00000000)
T33A4 000:588.899 - 0.006ms returns 0
T33A4 000:588.904 JLINK_SetBPEx(Addr = 0x20000000, Type = 0xFFFFFFF2)
T33A4 000:588.908 - 0.006ms returns 0x00000002
T33A4 000:588.913 JLINK_Go()
T33A4 000:588.924   CPU_ReadMem(4 bytes @ 0xE0001000)
T33A4 000:592.182 - 3.273ms
T33A4 000:592.193 JLINK_IsHalted()
T33A4 000:592.549 - 0.361ms returns FALSE
T33A4 000:592.561 JLINK_HasError()
T33A4 000:595.068 JLINK_IsHalted()
T33A4 000:595.430 - 0.368ms returns FALSE
T33A4 000:595.441 JLINK_HasError()
T33A4 000:598.074 JLINK_IsHalted()
T33A4 000:598.441 - 0.370ms returns FALSE
T33A4 000:598.448 JLINK_HasError()
T33A4 000:601.082 JLINK_IsHalted()
T33A4 000:604.073   CPU_ReadMem(2 bytes @ 0x20000000)
T33A4 000:604.454 - 3.375ms returns TRUE
T33A4 000:604.463 JLINK_ReadReg(R15 (PC))
T33A4 000:604.469 - 0.008ms returns 0x20000000
T33A4 000:604.474 JLINK_ClrBPEx(BPHandle = 0x00000002)
T33A4 000:604.478 - 0.006ms returns 0x00
T33A4 000:604.483 JLINK_ReadReg(R0)
T33A4 000:604.488 - 0.006ms returns 0x00000000
T33A4 000:655.791 JLINK_HasError()
T33A4 000:655.805 JLINK_WriteReg(R0, 0x00000001)
T33A4 000:655.813 - 0.009ms returns 0
T33A4 000:655.817 JLINK_WriteReg(R1, 0x00B71B00)
T33A4 000:655.821 - 0.005ms returns 0
T33A4 000:655.825 JLINK_WriteReg(R2, 0x00000001)
T33A4 000:655.829 - 0.005ms returns 0
T33A4 000:655.832 JLINK_WriteReg(R3, 0x00000000)
T33A4 000:655.836 - 0.005ms returns 0
T33A4 000:655.839 JLINK_WriteReg(R4, 0x00000000)
T33A4 000:655.843 - 0.004ms returns 0
T33A4 000:655.847 JLINK_WriteReg(R5, 0x00000000)
T33A4 000:655.850 - 0.004ms returns 0
T33A4 000:655.853 JLINK_WriteReg(R6, 0x00000000)
T33A4 000:655.857 - 0.004ms returns 0
T33A4 000:655.860 JLINK_WriteReg(R7, 0x00000000)
T33A4 000:655.864 - 0.004ms returns 0
T33A4 000:655.867 JLINK_WriteReg(R8, 0x00000000)
T33A4 000:655.871 - 0.005ms returns 0
T33A4 000:655.875 JLINK_WriteReg(R9, 0x20000310)
T33A4 000:655.878 - 0.004ms returns 0
T33A4 000:655.882 JLINK_WriteReg(R10, 0x00000000)
T33A4 000:655.885 - 0.004ms returns 0
T33A4 000:655.889 JLINK_WriteReg(R11, 0x00000000)
T33A4 000:655.892 - 0.004ms returns 0
T33A4 000:655.896 JLINK_WriteReg(R12, 0x00000000)
T33A4 000:655.899 - 0.004ms returns 0
T33A4 000:655.903 JLINK_WriteReg(R13 (SP), 0x20001000)
T33A4 000:655.906 - 0.005ms returns 0
T33A4 000:655.910 JLINK_WriteReg(R14, 0x20000001)
T33A4 000:655.913 - 0.005ms returns 0
T33A4 000:655.917 JLINK_WriteReg(R15 (PC), 0x200000FC)
T33A4 000:655.921 - 0.005ms returns 0
T33A4 000:655.924 JLINK_WriteReg(XPSR, 0x01000000)
T33A4 000:655.928 - 0.004ms returns 0
T33A4 000:655.931 JLINK_WriteReg(MSP, 0x20001000)
T33A4 000:655.935 - 0.004ms returns 0
T33A4 000:655.938 JLINK_WriteReg(PSP, 0x20001000)
T33A4 000:655.942 - 0.005ms returns 0
T33A4 000:655.945 JLINK_WriteReg(CFBP, 0x00000000)
T33A4 000:655.949 - 0.004ms returns 0
T33A4 000:655.952 JLINK_SetBPEx(Addr = 0x20000000, Type = 0xFFFFFFF2)
T33A4 000:655.957 - 0.006ms returns 0x00000003
T33A4 000:655.961 JLINK_Go()
T33A4 000:655.972   CPU_ReadMem(4 bytes @ 0xE0001000)
T33A4 000:659.211 - 3.256ms
T33A4 000:659.221 JLINK_IsHalted()
T33A4 000:662.183   CPU_ReadMem(2 bytes @ 0x20000000)
T33A4 000:662.553 - 3.334ms returns TRUE
T33A4 000:662.559 JLINK_ReadReg(R15 (PC))
T33A4 000:662.564 - 0.006ms returns 0x20000000
T33A4 000:662.568 JLINK_ClrBPEx(BPHandle = 0x00000003)
T33A4 000:662.572 - 0.005ms returns 0x00
T33A4 000:662.576 JLINK_ReadReg(R0)
T33A4 000:662.579 - 0.005ms returns 0x00000000
T33A4 000:665.898 JLINK_WriteMem(0x20000000, 0x314 Bytes, ...)
T33A4 000:665.904   Data:  00 BE 0A E0 0D 78 2D 06 68 40 08 24 40 00 00 D3 ...
T33A4 000:665.914   CPU_WriteMem(788 bytes @ 0x20000000)
T33A4 000:675.394 - 9.503ms returns 0x314
T33A4 000:675.440 JLINK_HasError()
T33A4 000:675.449 JLINK_WriteReg(R0, 0x08000000)
T33A4 000:675.455 - 0.008ms returns 0
T33A4 000:675.460 JLINK_WriteReg(R1, 0x00B71B00)
T33A4 000:675.465 - 0.006ms returns 0
T33A4 000:675.470 JLINK_WriteReg(R2, 0x00000002)
T33A4 000:675.474 - 0.006ms returns 0
T33A4 000:675.479 JLINK_WriteReg(R3, 0x00000000)
T33A4 000:675.483 - 0.006ms returns 0
T33A4 000:675.488 JLINK_WriteReg(R4, 0x00000000)
T33A4 000:675.492 - 0.006ms returns 0
T33A4 000:675.496 JLINK_WriteReg(R5, 0x00000000)
T33A4 000:675.500 - 0.006ms returns 0
T33A4 000:675.505 JLINK_WriteReg(R6, 0x00000000)
T33A4 000:675.509 - 0.006ms returns 0
T33A4 000:675.514 JLINK_WriteReg(R7, 0x00000000)
T33A4 000:675.518 - 0.006ms returns 0
T33A4 000:675.522 JLINK_WriteReg(R8, 0x00000000)
T33A4 000:675.527 - 0.006ms returns 0
T33A4 000:675.535 JLINK_WriteReg(R9, 0x20000310)
T33A4 000:675.541 - 0.008ms returns 0
T33A4 000:675.545 JLINK_WriteReg(R10, 0x00000000)
T33A4 000:675.550 - 0.006ms returns 0
T33A4 000:675.554 JLINK_WriteReg(R11, 0x00000000)
T33A4 000:675.558 - 0.006ms returns 0
T33A4 000:675.563 JLINK_WriteReg(R12, 0x00000000)
T33A4 000:675.567 - 0.006ms returns 0
T33A4 000:675.572 JLINK_WriteReg(R13 (SP), 0x20001000)
T33A4 000:675.576 - 0.006ms returns 0
T33A4 000:675.581 JLINK_WriteReg(R14, 0x20000001)
T33A4 000:675.585 - 0.006ms returns 0
T33A4 000:675.590 JLINK_WriteReg(R15 (PC), 0x2000009A)
T33A4 000:675.594 - 0.006ms returns 0
T33A4 000:675.598 JLINK_WriteReg(XPSR, 0x01000000)
T33A4 000:675.603 - 0.006ms returns 0
T33A4 000:675.607 JLINK_WriteReg(MSP, 0x20001000)
T33A4 000:675.611 - 0.006ms returns 0
T33A4 000:675.616 JLINK_WriteReg(PSP, 0x20001000)
T33A4 000:675.620 - 0.006ms returns 0
T33A4 000:675.625 JLINK_WriteReg(CFBP, 0x00000000)
T33A4 000:675.629 - 0.006ms returns 0
T33A4 000:675.633 JLINK_SetBPEx(Addr = 0x20000000, Type = 0xFFFFFFF2)
T33A4 000:675.640   CPU_ReadMem(2 bytes @ 0x20000000)
T33A4 000:676.020 - 0.391ms returns 0x00000004
T33A4 000:676.029 JLINK_Go()
T33A4 000:676.035   CPU_WriteMem(2 bytes @ 0x20000000)
T33A4 000:676.446   CPU_ReadMem(4 bytes @ 0xE0001000)
T33A4 000:679.648 - 3.624ms
T33A4 000:679.657 JLINK_IsHalted()
T33A4 000:682.646   CPU_ReadMem(2 bytes @ 0x20000000)
T33A4 000:683.026 - 3.374ms returns TRUE
T33A4 000:683.036 JLINK_ReadReg(R15 (PC))
T33A4 000:683.041 - 0.007ms returns 0x20000000
T33A4 000:683.045 JLINK_ClrBPEx(BPHandle = 0x00000004)
T33A4 000:683.049 - 0.005ms returns 0x00
T33A4 000:683.053 JLINK_ReadReg(R0)
T33A4 000:683.057 - 0.005ms returns 0x00000000
T33A4 000:683.261 JLINK_WriteMem(0x20000314, 0xEC Bytes, ...)
T33A4 000:683.268   Data:  18 10 00 20 89 01 00 08 49 1B 00 08 B9 0F 00 08 ...
T33A4 000:683.279   CPU_WriteMem(236 bytes @ 0x20000314)
T33A4 000:686.500 - 3.244ms returns 0xEC
T33A4 000:686.509 JLINK_WriteMem(0x20000400, 0x314 Bytes, ...)
T33A4 000:686.514   Data:  00 00 00 00 00 00 00 00 00 00 00 00 00 00 00 00 ...
T33A4 000:686.528   CPU_WriteMem(788 bytes @ 0x20000400)
T33A4 000:696.001 - 9.497ms returns 0x314
T33A4 000:696.011 JLINK_HasError()
T33A4 000:696.016 JLINK_WriteReg(R0, 0x08000000)
T33A4 000:696.022 - 0.007ms returns 0
T33A4 000:696.026 JLINK_WriteReg(R1, 0x00000400)
T33A4 000:696.030 - 0.005ms returns 0
T33A4 000:696.034 JLINK_WriteReg(R2, 0x20000314)
T33A4 000:696.037 - 0.005ms returns 0
T33A4 000:696.041 JLINK_WriteReg(R3, 0x00000000)
T33A4 000:696.044 - 0.004ms returns 0
T33A4 000:696.048 JLINK_WriteReg(R4, 0x00000000)
T33A4 000:696.051 - 0.004ms returns 0
T33A4 000:696.055 JLINK_WriteReg(R5, 0x00000000)
T33A4 000:696.058 - 0.007ms returns 0
T33A4 000:696.064 JLINK_WriteReg(R6, 0x00000000)
T33A4 000:696.068 - 0.005ms returns 0
T33A4 000:696.072 JLINK_WriteReg(R7, 0x00000000)
T33A4 000:696.075 - 0.004ms returns 0
T33A4 000:696.079 JLINK_WriteReg(R8, 0x00000000)
T33A4 000:696.082 - 0.004ms returns 0
T33A4 000:696.086 JLINK_WriteReg(R9, 0x20000310)
T33A4 000:696.089 - 0.004ms returns 0
T33A4 000:696.093 JLINK_WriteReg(R10, 0x00000000)
T33A4 000:696.096 - 0.004ms returns 0
T33A4 000:696.100 JLINK_WriteReg(R11, 0x00000000)
T33A4 000:696.103 - 0.004ms returns 0
T33A4 000:696.107 JLINK_WriteReg(R12, 0x00000000)
T33A4 000:696.110 - 0.004ms returns 0
T33A4 000:696.114 JLINK_WriteReg(R13 (SP), 0x20001000)
T33A4 000:696.117 - 0.005ms returns 0
T33A4 000:696.121 JLINK_WriteReg(R14, 0x20000001)
T33A4 000:696.124 - 0.004ms returns 0
T33A4 000:696.128 JLINK_WriteReg(R15 (PC), 0x20000270)
T33A4 000:696.131 - 0.004ms returns 0
T33A4 000:696.135 JLINK_WriteReg(XPSR, 0x01000000)
T33A4 000:696.138 - 0.004ms returns 0
T33A4 000:696.142 JLINK_WriteReg(MSP, 0x20001000)
T33A4 000:696.145 - 0.004ms returns 0
T33A4 000:696.149 JLINK_WriteReg(PSP, 0x20001000)
T33A4 000:696.152 - 0.004ms returns 0
T33A4 000:696.156 JLINK_WriteReg(CFBP, 0x00000000)
T33A4 000:696.159 - 0.004ms returns 0
T33A4 000:696.163 JLINK_SetBPEx(Addr = 0x20000000, Type = 0xFFFFFFF2)
T33A4 000:696.171 - 0.010ms returns 0x00000005
T33A4 000:696.175 JLINK_Go()
T33A4 000:696.183   CPU_ReadMem(4 bytes @ 0xE0001000)
T33A4 000:699.472 - 3.302ms
T33A4 000:699.481 JLINK_IsHalted()
T33A4 000:699.831 - 0.353ms returns FALSE
T33A4 000:699.838 JLINK_HasError()
T33A4 000:703.070 JLINK_IsHalted()
T33A4 000:703.435 - 0.371ms returns FALSE
T33A4 000:703.446 JLINK_HasError()
T33A4 000:705.081 JLINK_IsHalted()
T33A4 000:705.447 - 0.371ms returns FALSE
T33A4 000:705.457 JLINK_HasError()
T33A4 000:708.069 JLINK_IsHalted()
T33A4 000:708.487 - 0.426ms returns FALSE
T33A4 000:708.501 JLINK_HasError()
T33A4 000:711.070 JLINK_IsHalted()
T33A4 000:711.439 - 0.375ms returns FALSE
T33A4 000:711.451 JLINK_HasError()
T33A4 000:713.069 JLINK_IsHalted()
T33A4 000:713.429 - 0.365ms returns FALSE
T33A4 000:713.438 JLINK_HasError()
T33A4 000:715.077 JLINK_IsHalted()
T33A4 000:715.438 - 0.365ms returns FALSE
T33A4 000:715.446 JLINK_HasError()
T33A4 000:717.069 JLINK_IsHalted()
T33A4 000:717.427 - 0.362ms returns FALSE
T33A4 000:717.435 JLINK_HasError()
T33A4 000:719.067 JLINK_IsHalted()
T33A4 000:719.423 - 0.360ms returns FALSE
T33A4 000:719.432 JLINK_HasError()
T33A4 000:721.070 JLINK_IsHalted()
T33A4 000:724.058   CPU_ReadMem(2 bytes @ 0x20000000)
T33A4 000:724.428 - 3.361ms returns TRUE
T33A4 000:724.435 JLINK_ReadReg(R15 (PC))
T33A4 000:724.440 - 0.006ms returns 0x20000000
T33A4 000:724.444 JLINK_ClrBPEx(BPHandle = 0x00000005)
T33A4 000:724.448 - 0.005ms returns 0x00
T33A4 000:724.452 JLINK_ReadReg(R0)
T33A4 000:724.455 - 0.005ms returns 0x00000000
T33A4 000:724.772 JLINK_WriteMem(0x20000314, 0xEC Bytes, ...)
T33A4 000:724.778   Data:  47 EB 03 01 40 EA D5 70 B6 19 6D 41 11 E0 6D 08 ...
T33A4 000:724.787   CPU_WriteMem(236 bytes @ 0x20000314)
T33A4 000:728.016 - 3.250ms returns 0xEC
T33A4 000:728.030 JLINK_WriteMem(0x20000400, 0x314 Bytes, ...)
T33A4 000:728.035   Data:  B5 EB 08 05 6E EB 07 0C 87 0E 92 0E 47 EA 81 17 ...
T33A4 000:728.046   CPU_WriteMem(788 bytes @ 0x20000400)
T33A4 000:737.531 - 9.506ms returns 0x314
T33A4 000:737.544 JLINK_HasError()
T33A4 000:737.576 JLINK_WriteReg(R0, 0x08000400)
T33A4 000:737.584 - 0.010ms returns 0
T33A4 000:737.589 JLINK_WriteReg(R1, 0x00000400)
T33A4 000:737.593 - 0.006ms returns 0
T33A4 000:737.598 JLINK_WriteReg(R2, 0x20000314)
T33A4 000:737.602 - 0.006ms returns 0
T33A4 000:737.607 JLINK_WriteReg(R3, 0x00000000)
T33A4 000:737.611 - 0.006ms returns 0
T33A4 000:737.615 JLINK_WriteReg(R4, 0x00000000)
T33A4 000:737.620 - 0.006ms returns 0
T33A4 000:737.624 JLINK_WriteReg(R5, 0x00000000)
T33A4 000:737.628 - 0.006ms returns 0
T33A4 000:737.633 JLINK_WriteReg(R6, 0x00000000)
T33A4 000:737.637 - 0.006ms returns 0
T33A4 000:737.641 JLINK_WriteReg(R7, 0x00000000)
T33A4 000:737.645 - 0.006ms returns 0
T33A4 000:737.650 JLINK_WriteReg(R8, 0x00000000)
T33A4 000:737.654 - 0.006ms returns 0
T33A4 000:737.659 JLINK_WriteReg(R9, 0x20000310)
T33A4 000:737.663 - 0.006ms returns 0
T33A4 000:737.667 JLINK_WriteReg(R10, 0x00000000)
T33A4 000:737.672 - 0.006ms returns 0
T33A4 000:737.676 JLINK_WriteReg(R11, 0x00000000)
T33A4 000:737.680 - 0.006ms returns 0
T33A4 000:737.685 JLINK_WriteReg(R12, 0x00000000)
T33A4 000:737.689 - 0.006ms returns 0
T33A4 000:737.694 JLINK_WriteReg(R13 (SP), 0x20001000)
T33A4 000:737.698 - 0.006ms returns 0
T33A4 000:737.703 JLINK_WriteReg(R14, 0x20000001)
T33A4 000:737.707 - 0.006ms returns 0
T33A4 000:737.712 JLINK_WriteReg(R15 (PC), 0x20000270)
T33A4 000:737.716 - 0.006ms returns 0
T33A4 000:737.720 JLINK_WriteReg(XPSR, 0x01000000)
T33A4 000:737.724 - 0.006ms returns 0
T33A4 000:737.729 JLINK_WriteReg(MSP, 0x20001000)
T33A4 000:737.733 - 0.006ms returns 0
T33A4 000:737.738 JLINK_WriteReg(PSP, 0x20001000)
T33A4 000:737.742 - 0.006ms returns 0
T33A4 000:737.747 JLINK_WriteReg(CFBP, 0x00000000)
T33A4 000:737.751 - 0.006ms returns 0
T33A4 000:737.755 JLINK_SetBPEx(Addr = 0x20000000, Type = 0xFFFFFFF2)
T33A4 000:737.760 - 0.006ms returns 0x00000006
T33A4 000:737.769 JLINK_Go()
T33A4 000:737.780   CPU_ReadMem(4 bytes @ 0xE0001000)
T33A4 000:741.036 - 3.273ms
T33A4 000:741.047 JLINK_IsHalted()
T33A4 000:741.407 - 0.363ms returns FALSE
T33A4 000:741.414 JLINK_HasError()
T33A4 000:744.075 JLINK_IsHalted()
T33A4 000:744.444 - 0.375ms returns FALSE
T33A4 000:744.456 JLINK_HasError()
T33A4 000:746.068 JLINK_IsHalted()
T33A4 000:746.427 - 0.363ms returns FALSE
T33A4 000:746.435 JLINK_HasError()
T33A4 000:749.068 JLINK_IsHalted()
T33A4 000:749.434 - 0.372ms returns FALSE
T33A4 000:749.445 JLINK_HasError()
T33A4 000:751.071 JLINK_IsHalted()
T33A4 000:751.432 - 0.364ms returns FALSE
T33A4 000:751.439 JLINK_HasError()
T33A4 000:753.079 JLINK_IsHalted()
T33A4 000:753.434 - 0.360ms returns FALSE
T33A4 000:753.444 JLINK_HasError()
T33A4 000:755.068 JLINK_IsHalted()
T33A4 000:755.442 - 0.380ms returns FALSE
T33A4 000:755.452 JLINK_HasError()
T33A4 000:758.081 JLINK_IsHalted()
T33A4 000:758.472 - 0.396ms returns FALSE
T33A4 000:758.482 JLINK_HasError()
T33A4 000:760.068 JLINK_IsHalted()
T33A4 000:760.430 - 0.365ms returns FALSE
T33A4 000:760.437 JLINK_HasError()
T33A4 000:762.071 JLINK_IsHalted()
T33A4 000:762.432 - 0.365ms returns FALSE
T33A4 000:762.443 JLINK_HasError()
T33A4 000:764.072 JLINK_IsHalted()
T33A4 000:767.048   CPU_ReadMem(2 bytes @ 0x20000000)
T33A4 000:767.424 - 3.356ms returns TRUE
T33A4 000:767.432 JLINK_ReadReg(R15 (PC))
T33A4 000:767.438 - 0.008ms returns 0x20000000
T33A4 000:767.443 JLINK_ClrBPEx(BPHandle = 0x00000006)
T33A4 000:767.448 - 0.006ms returns 0x00
T33A4 000:767.453 JLINK_ReadReg(R0)
T33A4 000:767.457 - 0.006ms returns 0x00000000
T33A4 000:767.846 JLINK_WriteMem(0x20000314, 0xEC Bytes, ...)
T33A4 000:767.854   Data:  50 46 FF F7 77 FF 05 46 0E 46 50 46 59 46 42 46 ...
T33A4 000:767.865   CPU_WriteMem(236 bytes @ 0x20000314)
T33A4 000:771.131 - 3.290ms returns 0xEC
T33A4 000:771.140 JLINK_WriteMem(0x20000400, 0x314 Bytes, ...)
T33A4 000:771.144   Data:  68 46 03 F0 CA F8 01 21 4F F4 A0 10 02 F0 94 FF ...
T33A4 000:771.153   CPU_WriteMem(788 bytes @ 0x20000400)
T33A4 000:780.627 - 9.493ms returns 0x314
T33A4 000:780.639 JLINK_HasError()
T33A4 000:780.645 JLINK_WriteReg(R0, 0x08000800)
T33A4 000:780.652 - 0.009ms returns 0
T33A4 000:780.657 JLINK_WriteReg(R1, 0x00000400)
T33A4 000:780.661 - 0.006ms returns 0
T33A4 000:780.666 JLINK_WriteReg(R2, 0x20000314)
T33A4 000:780.670 - 0.006ms returns 0
T33A4 000:780.675 JLINK_WriteReg(R3, 0x00000000)
T33A4 000:780.679 - 0.006ms returns 0
T33A4 000:780.684 JLINK_WriteReg(R4, 0x00000000)
T33A4 000:780.688 - 0.006ms returns 0
T33A4 000:780.692 JLINK_WriteReg(R5, 0x00000000)
T33A4 000:780.696 - 0.006ms returns 0
T33A4 000:780.701 JLINK_WriteReg(R6, 0x00000000)
T33A4 000:780.705 - 0.006ms returns 0
T33A4 000:780.710 JLINK_WriteReg(R7, 0x00000000)
T33A4 000:780.714 - 0.006ms returns 0
T33A4 000:780.718 JLINK_WriteReg(R8, 0x00000000)
T33A4 000:780.722 - 0.006ms returns 0
T33A4 000:780.727 JLINK_WriteReg(R9, 0x20000310)
T33A4 000:780.731 - 0.006ms returns 0
T33A4 000:780.736 JLINK_WriteReg(R10, 0x00000000)
T33A4 000:780.740 - 0.006ms returns 0
T33A4 000:780.744 JLINK_WriteReg(R11, 0x00000000)
T33A4 000:780.749 - 0.006ms returns 0
T33A4 000:780.753 JLINK_WriteReg(R12, 0x00000000)
T33A4 000:780.757 - 0.006ms returns 0
T33A4 000:780.762 JLINK_WriteReg(R13 (SP), 0x20001000)
T33A4 000:780.766 - 0.006ms returns 0
T33A4 000:780.771 JLINK_WriteReg(R14, 0x20000001)
T33A4 000:780.775 - 0.006ms returns 0
T33A4 000:780.780 JLINK_WriteReg(R15 (PC), 0x20000270)
T33A4 000:780.784 - 0.006ms returns 0
T33A4 000:780.788 JLINK_WriteReg(XPSR, 0x01000000)
T33A4 000:780.793 - 0.006ms returns 0
T33A4 000:780.797 JLINK_WriteReg(MSP, 0x20001000)
T33A4 000:780.801 - 0.006ms returns 0
T33A4 000:780.806 JLINK_WriteReg(PSP, 0x20001000)
T33A4 000:780.810 - 0.006ms returns 0
T33A4 000:780.815 JLINK_WriteReg(CFBP, 0x00000000)
T33A4 000:780.819 - 0.006ms returns 0
T33A4 000:780.824 JLINK_SetBPEx(Addr = 0x20000000, Type = 0xFFFFFFF2)
T33A4 000:780.829 - 0.006ms returns 0x00000007
T33A4 000:780.881 JLINK_Go()
T33A4 000:780.894   CPU_ReadMem(4 bytes @ 0xE0001000)
T33A4 000:784.163 - 3.287ms
T33A4 000:784.173 JLINK_IsHalted()
T33A4 000:784.530 - 0.360ms returns FALSE
T33A4 000:784.538 JLINK_HasError()
T33A4 000:787.069 JLINK_IsHalted()
T33A4 000:787.424 - 0.360ms returns FALSE
T33A4 000:787.436 JLINK_HasError()
T33A4 000:789.077 JLINK_IsHalted()
T33A4 000:789.447 - 0.375ms returns FALSE
T33A4 000:789.457 JLINK_HasError()
T33A4 000:791.068 JLINK_IsHalted()
T33A4 000:791.426 - 0.363ms returns FALSE
T33A4 000:791.436 JLINK_HasError()
T33A4 000:795.070 JLINK_IsHalted()
T33A4 000:795.438 - 0.374ms returns FALSE
T33A4 000:795.449 JLINK_HasError()
T33A4 000:798.070 JLINK_IsHalted()
T33A4 000:798.450 - 0.384ms returns FALSE
T33A4 000:798.458 JLINK_HasError()
T33A4 000:801.069 JLINK_IsHalted()
T33A4 000:801.442 - 0.380ms returns FALSE
T33A4 000:801.456 JLINK_HasError()
T33A4 000:807.069 JLINK_IsHalted()
T33A4 000:810.075   CPU_ReadMem(2 bytes @ 0x20000000)
T33A4 000:810.453 - 3.387ms returns TRUE
T33A4 000:810.460 JLINK_ReadReg(R15 (PC))
T33A4 000:810.466 - 0.007ms returns 0x20000000
T33A4 000:810.470 JLINK_ClrBPEx(BPHandle = 0x00000007)
T33A4 000:810.474 - 0.005ms returns 0x00
T33A4 000:810.478 JLINK_ReadReg(R0)
T33A4 000:810.481 - 0.005ms returns 0x00000000
T33A4 000:810.786 JLINK_WriteMem(0x20000314, 0xEC Bytes, ...)
T33A4 000:810.792   Data:  E5 DC 70 47 1C B5 04 46 68 46 02 F0 E8 FF DC B1 ...
T33A4 000:810.802   CPU_WriteMem(236 bytes @ 0x20000314)
T33A4 000:814.011 - 3.231ms returns 0xEC
T33A4 000:814.025 JLINK_WriteMem(0x20000400, 0x314 Bytes, ...)
T33A4 000:814.030   Data:  C0 FB 05 46 FF F7 BF FC 83 46 00 98 08 B1 8B F0 ...
T33A4 000:814.042   CPU_WriteMem(788 bytes @ 0x20000400)
T33A4 000:823.523 - 9.503ms returns 0x314
T33A4 000:823.535 JLINK_HasError()
T33A4 000:823.565 JLINK_WriteReg(R0, 0x08000C00)
T33A4 000:823.572 - 0.008ms returns 0
T33A4 000:823.576 JLINK_WriteReg(R1, 0x00000400)
T33A4 000:823.580 - 0.005ms returns 0
T33A4 000:823.584 JLINK_WriteReg(R2, 0x20000314)
T33A4 000:823.587 - 0.005ms returns 0
T33A4 000:823.591 JLINK_WriteReg(R3, 0x00000000)
T33A4 000:823.594 - 0.004ms returns 0
T33A4 000:823.598 JLINK_WriteReg(R4, 0x00000000)
T33A4 000:823.601 - 0.005ms returns 0
T33A4 000:823.605 JLINK_WriteReg(R5, 0x00000000)
T33A4 000:823.608 - 0.004ms returns 0
T33A4 000:823.612 JLINK_WriteReg(R6, 0x00000000)
T33A4 000:823.615 - 0.005ms returns 0
T33A4 000:823.619 JLINK_WriteReg(R7, 0x00000000)
T33A4 000:823.622 - 0.004ms returns 0
T33A4 000:823.626 JLINK_WriteReg(R8, 0x00000000)
T33A4 000:823.629 - 0.004ms returns 0
T33A4 000:823.633 JLINK_WriteReg(R9, 0x20000310)
T33A4 000:823.636 - 0.004ms returns 0
T33A4 000:823.640 JLINK_WriteReg(R10, 0x00000000)
T33A4 000:823.643 - 0.005ms returns 0
T33A4 000:823.647 JLINK_WriteReg(R11, 0x00000000)
T33A4 000:823.650 - 0.004ms returns 0
T33A4 000:823.654 JLINK_WriteReg(R12, 0x00000000)
T33A4 000:823.657 - 0.004ms returns 0
T33A4 000:823.661 JLINK_WriteReg(R13 (SP), 0x20001000)
T33A4 000:823.664 - 0.005ms returns 0
T33A4 000:823.668 JLINK_WriteReg(R14, 0x20000001)
T33A4 000:823.671 - 0.004ms returns 0
T33A4 000:823.675 JLINK_WriteReg(R15 (PC), 0x20000270)
T33A4 000:823.678 - 0.005ms returns 0
T33A4 000:823.682 JLINK_WriteReg(XPSR, 0x01000000)
T33A4 000:823.685 - 0.005ms returns 0
T33A4 000:823.689 JLINK_WriteReg(MSP, 0x20001000)
T33A4 000:823.692 - 0.004ms returns 0
T33A4 000:823.696 JLINK_WriteReg(PSP, 0x20001000)
T33A4 000:823.699 - 0.004ms returns 0
T33A4 000:823.703 JLINK_WriteReg(CFBP, 0x00000000)
T33A4 000:823.706 - 0.004ms returns 0
T33A4 000:823.710 JLINK_SetBPEx(Addr = 0x20000000, Type = 0xFFFFFFF2)
T33A4 000:823.714 - 0.005ms returns 0x00000008
T33A4 000:823.718 JLINK_Go()
T33A4 000:823.726   CPU_ReadMem(4 bytes @ 0xE0001000)
T33A4 000:826.997 - 3.284ms
T33A4 000:827.006 JLINK_IsHalted()
T33A4 000:827.352 - 0.348ms returns FALSE
T33A4 000:827.358 JLINK_HasError()
T33A4 000:829.068 JLINK_IsHalted()
T33A4 000:829.427 - 0.362ms returns FALSE
T33A4 000:829.436 JLINK_HasError()
T33A4 000:831.071 JLINK_IsHalted()
T33A4 000:831.431 - 0.364ms returns FALSE
T33A4 000:831.439 JLINK_HasError()
T33A4 000:833.072 JLINK_IsHalted()
T33A4 000:833.429 - 0.361ms returns FALSE
T33A4 000:833.438 JLINK_HasError()
T33A4 000:835.069 JLINK_IsHalted()
T33A4 000:835.428 - 0.363ms returns FALSE
T33A4 000:835.436 JLINK_HasError()
T33A4 000:837.071 JLINK_IsHalted()
T33A4 000:837.429 - 0.363ms returns FALSE
T33A4 000:837.438 JLINK_HasError()
T33A4 000:839.068 JLINK_IsHalted()
T33A4 000:839.430 - 0.367ms returns FALSE
T33A4 000:839.440 JLINK_HasError()
T33A4 000:841.069 JLINK_IsHalted()
T33A4 000:841.423 - 0.358ms returns FALSE
T33A4 000:841.432 JLINK_HasError()
T33A4 000:843.084 JLINK_IsHalted()
T33A4 000:843.439 - 0.360ms returns FALSE
T33A4 000:843.448 JLINK_HasError()
T33A4 000:845.067 JLINK_IsHalted()
T33A4 000:845.429 - 0.366ms returns FALSE
T33A4 000:845.437 JLINK_HasError()
T33A4 000:847.071 JLINK_IsHalted()
T33A4 000:847.435 - 0.368ms returns FALSE
T33A4 000:847.444 JLINK_HasError()
T33A4 000:849.070 JLINK_IsHalted()
T33A4 000:852.074   CPU_ReadMem(2 bytes @ 0x20000000)
T33A4 000:852.454 - 3.387ms returns TRUE
T33A4 000:852.464 JLINK_ReadReg(R15 (PC))
T33A4 000:852.471 - 0.008ms returns 0x20000000
T33A4 000:852.477 JLINK_ClrBPEx(BPHandle = 0x00000008)
T33A4 000:852.481 - 0.006ms returns 0x00
T33A4 000:852.487 JLINK_ReadReg(R0)
T33A4 000:852.491 - 0.006ms returns 0x00000000
T33A4 000:852.854 JLINK_WriteMem(0x20000314, 0xEC Bytes, ...)
T33A4 000:852.862   Data:  01 21 18 48 02 F0 0E FC 01 21 16 48 80 1E 02 F0 ...
T33A4 000:852.873   CPU_WriteMem(236 bytes @ 0x20000314)
T33A4 000:856.116 - 3.266ms returns 0xEC
T33A4 000:856.124 JLINK_WriteMem(0x20000400, 0x314 Bytes, ...)
T33A4 000:856.129   Data:  2A 20 00 F0 59 FB 38 46 00 F0 70 FB 28 46 00 F0 ...
T33A4 000:856.137   CPU_WriteMem(788 bytes @ 0x20000400)
T33A4 000:865.610 - 9.491ms returns 0x314
T33A4 000:865.621 JLINK_HasError()
T33A4 000:865.627 JLINK_WriteReg(R0, 0x08001000)
T33A4 000:865.634 - 0.009ms returns 0
T33A4 000:865.639 JLINK_WriteReg(R1, 0x00000400)
T33A4 000:865.644 - 0.006ms returns 0
T33A4 000:865.649 JLINK_WriteReg(R2, 0x20000314)
T33A4 000:865.653 - 0.006ms returns 0
T33A4 000:865.658 JLINK_WriteReg(R3, 0x00000000)
T33A4 000:865.662 - 0.006ms returns 0
T33A4 000:865.666 JLINK_WriteReg(R4, 0x00000000)
T33A4 000:865.671 - 0.006ms returns 0
T33A4 000:865.675 JLINK_WriteReg(R5, 0x00000000)
T33A4 000:865.679 - 0.006ms returns 0
T33A4 000:865.684 JLINK_WriteReg(R6, 0x00000000)
T33A4 000:865.688 - 0.006ms returns 0
T33A4 000:865.692 JLINK_WriteReg(R7, 0x00000000)
T33A4 000:865.697 - 0.006ms returns 0
T33A4 000:865.701 JLINK_WriteReg(R8, 0x00000000)
T33A4 000:865.705 - 0.006ms returns 0
T33A4 000:865.710 JLINK_WriteReg(R9, 0x20000310)
T33A4 000:865.714 - 0.006ms returns 0
T33A4 000:865.718 JLINK_WriteReg(R10, 0x00000000)
T33A4 000:865.723 - 0.006ms returns 0
T33A4 000:865.727 JLINK_WriteReg(R11, 0x00000000)
T33A4 000:865.731 - 0.006ms returns 0
T33A4 000:865.736 JLINK_WriteReg(R12, 0x00000000)
T33A4 000:865.740 - 0.006ms returns 0
T33A4 000:865.745 JLINK_WriteReg(R13 (SP), 0x20001000)
T33A4 000:865.749 - 0.006ms returns 0
T33A4 000:865.754 JLINK_WriteReg(R14, 0x20000001)
T33A4 000:865.758 - 0.006ms returns 0
T33A4 000:865.762 JLINK_WriteReg(R15 (PC), 0x20000270)
T33A4 000:865.767 - 0.006ms returns 0
T33A4 000:865.771 JLINK_WriteReg(XPSR, 0x01000000)
T33A4 000:865.775 - 0.006ms returns 0
T33A4 000:865.780 JLINK_WriteReg(MSP, 0x20001000)
T33A4 000:865.784 - 0.006ms returns 0
T33A4 000:865.789 JLINK_WriteReg(PSP, 0x20001000)
T33A4 000:865.793 - 0.006ms returns 0
T33A4 000:865.797 JLINK_WriteReg(CFBP, 0x00000000)
T33A4 000:865.801 - 0.006ms returns 0
T33A4 000:865.806 JLINK_SetBPEx(Addr = 0x20000000, Type = 0xFFFFFFF2)
T33A4 000:865.811 - 0.006ms returns 0x00000009
T33A4 000:865.816 JLINK_Go()
T33A4 000:865.825   CPU_ReadMem(4 bytes @ 0xE0001000)
T33A4 000:869.073 - 3.264ms
T33A4 000:869.085 JLINK_IsHalted()
T33A4 000:869.445 - 0.367ms returns FALSE
T33A4 000:869.459 JLINK_HasError()
T33A4 000:871.068 JLINK_IsHalted()
T33A4 000:871.426 - 0.362ms returns FALSE
T33A4 000:871.435 JLINK_HasError()
T33A4 000:873.069 JLINK_IsHalted()
T33A4 000:873.430 - 0.363ms returns FALSE
T33A4 000:873.437 JLINK_HasError()
T33A4 000:875.068 JLINK_IsHalted()
T33A4 000:875.428 - 0.365ms returns FALSE
T33A4 000:875.438 JLINK_HasError()
T33A4 000:877.064 JLINK_IsHalted()
T33A4 000:877.424 - 0.366ms returns FALSE
T33A4 000:877.435 JLINK_HasError()
T33A4 000:879.100 JLINK_IsHalted()
T33A4 000:879.461 - 0.365ms returns FALSE
T33A4 000:879.470 JLINK_HasError()
T33A4 000:881.066 JLINK_IsHalted()
T33A4 000:881.422 - 0.361ms returns FALSE
T33A4 000:881.431 JLINK_HasError()
T33A4 000:883.070 JLINK_IsHalted()
T33A4 000:883.426 - 0.360ms returns FALSE
T33A4 000:883.435 JLINK_HasError()
T33A4 000:885.070 JLINK_IsHalted()
T33A4 000:885.421 - 0.356ms returns FALSE
T33A4 000:885.431 JLINK_HasError()
T33A4 000:887.068 JLINK_IsHalted()
T33A4 000:887.417 - 0.353ms returns FALSE
T33A4 000:887.425 JLINK_HasError()
T33A4 000:889.068 JLINK_IsHalted()
T33A4 000:889.424 - 0.361ms returns FALSE
T33A4 000:889.433 JLINK_HasError()
T33A4 000:891.069 JLINK_IsHalted()
T33A4 000:894.063   CPU_ReadMem(2 bytes @ 0x20000000)
T33A4 000:894.446 - 3.382ms returns TRUE
T33A4 000:894.455 JLINK_ReadReg(R15 (PC))
T33A4 000:894.462 - 0.008ms returns 0x20000000
T33A4 000:894.467 JLINK_ClrBPEx(BPHandle = 0x00000009)
T33A4 000:894.472 - 0.006ms returns 0x00
T33A4 000:894.477 JLINK_ReadReg(R0)
T33A4 000:894.481 - 0.006ms returns 0x00000000
T33A4 000:894.852 JLINK_WriteMem(0x20000314, 0xEC Bytes, ...)
T33A4 000:894.859   Data:  D1 F9 2C 20 00 F0 F9 F9 C2 20 00 F0 CB F9 01 20 ...
T33A4 000:894.870   CPU_WriteMem(236 bytes @ 0x20000314)
T33A4 000:898.117 - 3.269ms returns 0xEC
T33A4 000:898.126 JLINK_WriteMem(0x20000400, 0x314 Bytes, ...)
T33A4 000:898.130   Data:  1F 20 00 F0 84 F9 20 20 00 F0 81 F9 23 20 00 F0 ...
T33A4 000:898.139   CPU_WriteMem(788 bytes @ 0x20000400)
T33A4 000:907.611 - 9.490ms returns 0x314
T33A4 000:907.623 JLINK_HasError()
T33A4 000:907.654 JLINK_WriteReg(R0, 0x08001400)
T33A4 000:907.662 - 0.009ms returns 0
T33A4 000:907.667 JLINK_WriteReg(R1, 0x00000400)
T33A4 000:907.671 - 0.006ms returns 0
T33A4 000:907.676 JLINK_WriteReg(R2, 0x20000314)
T33A4 000:907.680 - 0.006ms returns 0
T33A4 000:907.685 JLINK_WriteReg(R3, 0x00000000)
T33A4 000:907.689 - 0.006ms returns 0
T33A4 000:907.694 JLINK_WriteReg(R4, 0x00000000)
T33A4 000:907.698 - 0.006ms returns 0
T33A4 000:907.703 JLINK_WriteReg(R5, 0x00000000)
T33A4 000:907.707 - 0.006ms returns 0
T33A4 000:907.711 JLINK_WriteReg(R6, 0x00000000)
T33A4 000:907.715 - 0.006ms returns 0
T33A4 000:907.720 JLINK_WriteReg(R7, 0x00000000)
T33A4 000:907.724 - 0.006ms returns 0
T33A4 000:907.729 JLINK_WriteReg(R8, 0x00000000)
T33A4 000:907.733 - 0.006ms returns 0
T33A4 000:907.737 JLINK_WriteReg(R9, 0x20000310)
T33A4 000:907.741 - 0.006ms returns 0
T33A4 000:907.746 JLINK_WriteReg(R10, 0x00000000)
T33A4 000:907.750 - 0.006ms returns 0
T33A4 000:907.755 JLINK_WriteReg(R11, 0x00000000)
T33A4 000:907.759 - 0.006ms returns 0
T33A4 000:907.763 JLINK_WriteReg(R12, 0x00000000)
T33A4 000:907.768 - 0.006ms returns 0
T33A4 000:907.772 JLINK_WriteReg(R13 (SP), 0x20001000)
T33A4 000:907.777 - 0.006ms returns 0
T33A4 000:907.781 JLINK_WriteReg(R14, 0x20000001)
T33A4 000:907.785 - 0.006ms returns 0
T33A4 000:907.790 JLINK_WriteReg(R15 (PC), 0x20000270)
T33A4 000:907.794 - 0.006ms returns 0
T33A4 000:907.799 JLINK_WriteReg(XPSR, 0x01000000)
T33A4 000:907.803 - 0.006ms returns 0
T33A4 000:907.808 JLINK_WriteReg(MSP, 0x20001000)
T33A4 000:907.812 - 0.006ms returns 0
T33A4 000:907.816 JLINK_WriteReg(PSP, 0x20001000)
T33A4 000:907.820 - 0.006ms returns 0
T33A4 000:907.825 JLINK_WriteReg(CFBP, 0x00000000)
T33A4 000:907.829 - 0.006ms returns 0
T33A4 000:907.834 JLINK_SetBPEx(Addr = 0x20000000, Type = 0xFFFFFFF2)
T33A4 000:907.839 - 0.006ms returns 0x0000000A
T33A4 000:907.843 JLINK_Go()
T33A4 000:907.855   CPU_ReadMem(4 bytes @ 0xE0001000)
T33A4 000:911.185 - 3.347ms
T33A4 000:911.195 JLINK_IsHalted()
T33A4 000:911.541 - 0.350ms returns FALSE
T33A4 000:911.549 JLINK_HasError()
T33A4 000:913.073 JLINK_IsHalted()
T33A4 000:913.437 - 0.368ms returns FALSE
T33A4 000:913.445 JLINK_HasError()
T33A4 000:915.068 JLINK_IsHalted()
T33A4 000:915.421 - 0.356ms returns FALSE
T33A4 000:915.429 JLINK_HasError()
T33A4 000:917.068 JLINK_IsHalted()
T33A4 000:917.417 - 0.352ms returns FALSE
T33A4 000:917.424 JLINK_HasError()
T33A4 000:919.068 JLINK_IsHalted()
T33A4 000:919.420 - 0.356ms returns FALSE
T33A4 000:919.427 JLINK_HasError()
T33A4 000:921.069 JLINK_IsHalted()
T33A4 000:921.419 - 0.354ms returns FALSE
T33A4 000:921.428 JLINK_HasError()
T33A4 000:923.067 JLINK_IsHalted()
T33A4 000:923.422 - 0.360ms returns FALSE
T33A4 000:923.432 JLINK_HasError()
T33A4 000:925.070 JLINK_IsHalted()
T33A4 000:925.450 - 0.385ms returns FALSE
T33A4 000:925.459 JLINK_HasError()
T33A4 000:929.069 JLINK_IsHalted()
T33A4 000:929.436 - 0.373ms returns FALSE
T33A4 000:929.446 JLINK_HasError()
T33A4 000:931.068 JLINK_IsHalted()
T33A4 000:931.436 - 0.373ms returns FALSE
T33A4 000:931.446 JLINK_HasError()
T33A4 000:933.069 JLINK_IsHalted()
T33A4 000:936.067   CPU_ReadMem(2 bytes @ 0x20000000)
T33A4 000:936.447 - 3.382ms returns TRUE
T33A4 000:936.455 JLINK_ReadReg(R15 (PC))
T33A4 000:936.462 - 0.009ms returns 0x20000000
T33A4 000:936.467 JLINK_ClrBPEx(BPHandle = 0x0000000A)
T33A4 000:936.472 - 0.006ms returns 0x00
T33A4 000:936.477 JLINK_ReadReg(R0)
T33A4 000:936.482 - 0.006ms returns 0x00000000
T33A4 000:936.878 JLINK_WriteMem(0x20000314, 0xEC Bytes, ...)
T33A4 000:936.886   Data:  08 46 00 F0 F1 FA 20 46 00 F0 05 F8 00 21 01 20 ...
T33A4 000:936.897   CPU_WriteMem(236 bytes @ 0x20000314)
T33A4 000:940.123 - 3.250ms returns 0xEC
T33A4 000:940.132 JLINK_WriteMem(0x20000400, 0x314 Bytes, ...)
T33A4 000:940.137   Data:  00 BF 00 BF 70 47 00 00 14 08 01 40 70 B5 02 F0 ...
T33A4 000:940.147   CPU_WriteMem(788 bytes @ 0x20000400)
T33A4 000:949.622 - 9.497ms returns 0x314
T33A4 000:949.637 JLINK_HasError()
T33A4 000:949.642 JLINK_WriteReg(R0, 0x08001800)
T33A4 000:949.650 - 0.010ms returns 0
T33A4 000:949.655 JLINK_WriteReg(R1, 0x00000400)
T33A4 000:949.660 - 0.006ms returns 0
T33A4 000:949.665 JLINK_WriteReg(R2, 0x20000314)
T33A4 000:949.669 - 0.006ms returns 0
T33A4 000:949.674 JLINK_WriteReg(R3, 0x00000000)
T33A4 000:949.678 - 0.006ms returns 0
T33A4 000:949.683 JLINK_WriteReg(R4, 0x00000000)
T33A4 000:949.687 - 0.006ms returns 0
T33A4 000:949.691 JLINK_WriteReg(R5, 0x00000000)
T33A4 000:949.695 - 0.006ms returns 0
T33A4 000:949.700 JLINK_WriteReg(R6, 0x00000000)
T33A4 000:949.704 - 0.006ms returns 0
T33A4 000:949.709 JLINK_WriteReg(R7, 0x00000000)
T33A4 000:949.713 - 0.006ms returns 0
T33A4 000:949.717 JLINK_WriteReg(R8, 0x00000000)
T33A4 000:949.721 - 0.006ms returns 0
T33A4 000:949.726 JLINK_WriteReg(R9, 0x20000310)
T33A4 000:949.730 - 0.006ms returns 0
T33A4 000:949.735 JLINK_WriteReg(R10, 0x00000000)
T33A4 000:949.739 - 0.006ms returns 0
T33A4 000:949.743 JLINK_WriteReg(R11, 0x00000000)
T33A4 000:949.747 - 0.006ms returns 0
T33A4 000:949.752 JLINK_WriteReg(R12, 0x00000000)
T33A4 000:949.756 - 0.006ms returns 0
T33A4 000:949.761 JLINK_WriteReg(R13 (SP), 0x20001000)
T33A4 000:949.765 - 0.006ms returns 0
T33A4 000:949.770 JLINK_WriteReg(R14, 0x20000001)
T33A4 000:949.774 - 0.006ms returns 0
T33A4 000:949.778 JLINK_WriteReg(R15 (PC), 0x20000270)
T33A4 000:949.783 - 0.006ms returns 0
T33A4 000:949.787 JLINK_WriteReg(XPSR, 0x01000000)
T33A4 000:949.791 - 0.006ms returns 0
T33A4 000:949.796 JLINK_WriteReg(MSP, 0x20001000)
T33A4 000:949.800 - 0.006ms returns 0
T33A4 000:949.805 JLINK_WriteReg(PSP, 0x20001000)
T33A4 000:949.809 - 0.006ms returns 0
T33A4 000:949.813 JLINK_WriteReg(CFBP, 0x00000000)
T33A4 000:949.817 - 0.006ms returns 0
T33A4 000:949.822 JLINK_SetBPEx(Addr = 0x20000000, Type = 0xFFFFFFF2)
T33A4 000:949.827 - 0.006ms returns 0x0000000B
T33A4 000:949.832 JLINK_Go()
T33A4 000:949.847   CPU_ReadMem(4 bytes @ 0xE0001000)
T33A4 000:953.211 - 3.385ms
T33A4 000:953.222 JLINK_IsHalted()
T33A4 000:953.570 - 0.352ms returns FALSE
T33A4 000:953.577 JLINK_HasError()
T33A4 000:955.068 JLINK_IsHalted()
T33A4 000:955.429 - 0.365ms returns FALSE
T33A4 000:955.437 JLINK_HasError()
T33A4 000:957.070 JLINK_IsHalted()
T33A4 000:957.432 - 0.367ms returns FALSE
T33A4 000:957.442 JLINK_HasError()
T33A4 000:959.073 JLINK_IsHalted()
T33A4 000:959.428 - 0.360ms returns FALSE
T33A4 000:959.437 JLINK_HasError()
T33A4 000:961.071 JLINK_IsHalted()
T33A4 000:961.431 - 0.364ms returns FALSE
T33A4 000:961.440 JLINK_HasError()
T33A4 000:963.068 JLINK_IsHalted()
T33A4 000:963.438 - 0.373ms returns FALSE
T33A4 000:963.446 JLINK_HasError()
T33A4 000:965.069 JLINK_IsHalted()
T33A4 000:965.417 - 0.353ms returns FALSE
T33A4 000:965.425 JLINK_HasError()
T33A4 000:967.083 JLINK_IsHalted()
T33A4 000:967.440 - 0.361ms returns FALSE
T33A4 000:967.448 JLINK_HasError()
T33A4 000:969.069 JLINK_IsHalted()
T33A4 000:969.417 - 0.353ms returns FALSE
T33A4 000:969.425 JLINK_HasError()
T33A4 000:971.069 JLINK_IsHalted()
T33A4 000:971.425 - 0.361ms returns FALSE
T33A4 000:971.434 JLINK_HasError()
T33A4 000:973.068 JLINK_IsHalted()
T33A4 000:973.440 - 0.378ms returns FALSE
T33A4 000:973.450 JLINK_HasError()
T33A4 000:975.067 JLINK_IsHalted()
T33A4 000:978.065   CPU_ReadMem(2 bytes @ 0x20000000)
T33A4 000:978.451 - 3.388ms returns TRUE
T33A4 000:978.459 JLINK_ReadReg(R15 (PC))
T33A4 000:978.466 - 0.008ms returns 0x20000000
T33A4 000:978.471 JLINK_ClrBPEx(BPHandle = 0x0000000B)
T33A4 000:978.475 - 0.006ms returns 0x00
T33A4 000:978.480 JLINK_ReadReg(R0)
T33A4 000:978.484 - 0.006ms returns 0x00000000
T33A4 000:978.869 JLINK_WriteMem(0x20000314, 0xEC Bytes, ...)
T33A4 000:978.876   Data:  01 20 00 E0 00 20 A0 72 00 20 20 72 01 E0 00 20 ...
